frequency,z_real,z_imag
1000000,50.2,-5.1
500000,51.5,-10.3
200000,54.8,-24.5
100000,62.3,-48.2
50000,85.6,-95.3
20000,165.2,-210.5
10000,320.5,-380.2
5000,580.3,-520.1
2000,1050.2,-650.3
1000,1450.5,-580.2
500,1750.3,-420.1
200,1950.8,-250.5
100,2020.3,-165.2
50,2050.1,-110.5
20,2080.5,-65.3
10,2095.2,-42.1
5,2100.8,-28.5
2,2105.3,-15.2
1,2108.1,-10.5
0.5,2109.5,-8.2
0.1,2110.2,-5.1
